
T4BAC 000:311 SEGGER J-Link V4.92 Log File (0001ms, 0270ms total)
T4BAC 000:311 DLL Compiled: Sep 30 2014 09:33:42 (0001ms, 0270ms total)
T4BAC 000:311 Logging started @ 2024-09-27 16:30 (0001ms, 0270ms total)
T4BAC 000:312 JLINK_SetWarnOutHandler(...) (0000ms, 0270ms total)
T4BAC 000:312 JLINK_OpenEx(...)
Firmware: J-Link ARM-OB STM32 compiled Aug 22 2012 19:52:04
Hardware: V7.00
S/N: 20090929
Feature(s): RDI,FlashDL,FlashBP,JFlash,GDBFull  returns O.K. (0267ms, 0537ms total)
T4BAC 000:579 JLINK_GetEmuCaps()  returns 0x88EA5833 (0000ms, 0537ms total)
T4BAC 000:579 JLINK_TIF_GetAvailable(...) (0000ms, 0537ms total)
T4BAC 000:579 JLINK_SetErrorOutHandler(...) (0000ms, 0537ms total)
T4BAC 000:579 JLINK_ExecCommand("ProjectFile = "C:\Users\kkkk\Desktop\NWD0618_iap\hc32l17x_AppCode\project\MDK\JLinkSettings.ini"", ...)Device "CORTEX-M0+" selected (0 KB flash, 0 KB RAM).  returns 0x00 (0006ms, 0543ms total)
T4BAC 000:597 JLINK_ExecCommand("Device = HC32L176PATA", ...)Device "CORTEX-M0+" selected (0 KB flash, 0 KB RAM).  returns 0x00 (0014ms, 0557ms total)
T4BAC 000:611 JLINK_ExecCommand("DisableConnectionTimeout", ...)  returns 0x01 (0000ms, 0557ms total)
T4BAC 000:611 JLINK_GetHardwareVersion()  returns 0x11170 (0000ms, 0557ms total)
T4BAC 000:611 JLINK_GetDLLVersion()  returns 49200 (0000ms, 0557ms total)
T4BAC 000:611 JLINK_GetFirmwareString(...) (0000ms, 0557ms total)
T4BAC 000:628 JLINK_GetDLLVersion()  returns 49200 (0000ms, 0557ms total)
T4BAC 000:628 JLINK_GetCompileDateTime() (0000ms, 0557ms total)
T4BAC 000:631 JLINK_GetFirmwareString(...) (0000ms, 0557ms total)
T4BAC 000:634 JLINK_GetHardwareVersion()  returns 0x11170 (0000ms, 0557ms total)
T4BAC 000:642 JLINK_TIF_Select(JLINKARM_TIF_SWD)  returns 0x00 (0001ms, 0558ms total)
T4BAC 000:643 JLINK_SetSpeed(5000) (0000ms, 0558ms total)
T4BAC 000:643 JLINK_GetId() >0x108 TIF>Found SWD-DP with ID 0x0BC11477 >0x0D TIF> >0x21 TIF> >0x0D TIF> >0x28 TIF> >0x0D TIF> >0x28 TIF> >0x0D TIF> >0x21 TIF> >0x0D TIF> >0x28 TIF> >0x0D TIF> >0x21 TIF> >0x0D TIF> >0x21 TIF> >0x0D TIF> >0x21 TIF> >0x0D TIF> >0x21 TIF> >0x0D TIF> >0x28 TIF> >0x0D TIF> >0x28 TIF> >0x0D TIF> >0x21 TIF> >0x0D TIF> >0x28 TIF> >0x0D TIF> >0x28 TIF> >0x0D TIF> >0x28 TIF> >0x0D TIF> >0x21 TIF> >0x0D TIF> >0x21 TIF> >0x0D TIF> >0x28 TIF> >0x0D TIF> >0x21 TIF> >0x0D TIF>
 >0x21 TIF>Found Cortex-M0 r0p1, Little endian. -- CPU_WriteMem(4 bytes @ 0xE0002000) -- CPU_ReadMem(4 bytes @ 0xE000EDF0) -- CPU_ReadMem(4 bytes @ 0xE0002000)FPUnit: 4 code (BP) slots and 0 literal slots -- CPU_ReadMem(4 bytes @ 0xE000EDFC) -- CPU_ReadMem(4 bytes @ 0xE0001000) -- CPU_WriteMem(4 bytes @ 0xE0001000) -- CPU_ReadMem(4 bytes @ 0xE00FF018) >0x0D TIF> >0x21 TIF>  returns 0x0BC11477 (0032ms, 0590ms total)
T4BAC 000:675 JLINK_GetDLLVersion()  returns 49200 (0000ms, 0590ms total)
T4BAC 000:675 JLINK_CORE_GetFound()  returns 0x60000FF (0000ms, 0590ms total)
T4BAC 000:679 JLINK_GetDebugInfo(0x100) -- Value=0xE00FF003  returns 0x00 (0000ms, 0590ms total)
T4BAC 000:679 JLINK_GetDebugInfo(0x101)  returns 0xFFFFFFFF (0000ms, 0590ms total)
T4BAC 000:679 JLINK_ReadMemEx(0xE0041FF0, 0x0010 Bytes, ..., AccessWidth = 33554436) -- CPU is running -- CPU_ReadMem(16 bytes @ 0xE0041FF0) - Data: 00 00 00 00 00 00 00 00 00 00 00 00 00 00 00 00  returns 0x10 (0001ms, 0591ms total)
T4BAC 000:680 JLINK_GetDebugInfo(0x102)  returns 0xFFFFFFFF (0000ms, 0591ms total)
T4BAC 000:680 JLINK_GetDebugInfo(0x103)  returns 0xFFFFFFFF (0000ms, 0591ms total)
T4BAC 000:680 JLINK_ReadMemEx(0xE0040FF0, 0x0010 Bytes, ..., AccessWidth = 33554436) -- CPU is running -- CPU_ReadMem(16 bytes @ 0xE0040FF0) - Data: 00 00 00 00 00 00 00 00 00 00 00 00 00 00 00 00  returns 0x10 (0001ms, 0592ms total)
T4BAC 000:681 JLINK_GetDebugInfo(0x104)  returns 0xFFFFFFFF (0000ms, 0592ms total)
T4BAC 000:681 JLINK_GetDebugInfo(0x105)  returns 0xFFFFFFFF (0000ms, 0592ms total)
T4BAC 000:681 JLINK_GetDebugInfo(0x106)  returns 0xFFFFFFFF (0000ms, 0592ms total)
T4BAC 000:681 JLINK_GetDebugInfo(0x107)  returns 0xFFFFFFFF (0000ms, 0592ms total)
T4BAC 000:681 JLINK_GetDebugInfo(0x10C)  returns 0xFFFFFFFF (0000ms, 0592ms total)
T4BAC 000:681 JLINK_ReadMemU32(0xE000ED00, 0x0001 Items, ...) -- CPU is running -- CPU_ReadMem(4 bytes @ 0xE000ED00) - Data: 01 C6 0C 41  returns 0x01 (0000ms, 0592ms total)
T4BAC 000:681 JLINK_GetDebugInfo(0x10F)  returns 0xFFFFFFFF (0000ms, 0592ms total)
T4BAC 000:681 JLINK_SetResetType(JLINKARM_RESET_TYPE_NORMAL)  returns JLINKARM_RESET_TYPE_NORMAL (0000ms, 0592ms total)
T4BAC 000:681 JLINK_Reset() -- CPU is running -- CPU_WriteMem(4 bytes @ 0xE000EDF0) -- CPU is running -- CPU_WriteMem(4 bytes @ 0xE000EDFC) >0x35 TIF> -- CPU is running -- CPU_WriteMem(4 bytes @ 0xE000ED0C) -- CPU is running -- CPU_ReadMem(4 bytes @ 0xE000EDF0) -- CPU is running -- CPU_ReadMem(4 bytes @ 0xE000EDF0) -- CPU is running -- CPU_WriteMem(4 bytes @ 0xE000EDF0) -- CPU is running -- CPU_WriteMem(4 bytes @ 0xE000EDFC) -- CPU is running -- CPU_ReadMem(4 bytes @ 0xE000EDF0)
 -- CPU_WriteMem(4 bytes @ 0xE0002000) -- CPU_ReadMem(4 bytes @ 0xE000EDFC) -- CPU_ReadMem(4 bytes @ 0xE0001000) -- CPU_WriteMem(4 bytes @ 0xE0001000) (0021ms, 0613ms total)
T4BAC 000:702 JLINK_Halt()  returns 0x00 (0000ms, 0613ms total)
T4BAC 000:702 JLINK_ReadMemU32(0xE000EDF0, 0x0001 Items, ...) -- CPU_ReadMem(4 bytes @ 0xE000EDF0) - Data: 03 00 03 01  returns 0x01 (0000ms, 0613ms total)
T4BAC 000:702 JLINK_WriteU32(0xE000EDF0, 0xA05F0003) -- CPU_WriteMem(4 bytes @ 0xE000EDF0)  returns 0x00 (0001ms, 0614ms total)
T4BAC 000:703 JLINK_WriteU32(0xE000EDFC, 0x01000000) -- CPU_WriteMem(4 bytes @ 0xE000EDFC)  returns 0x00 (0001ms, 0615ms total)
T4BAC 000:713 JLINK_GetHWStatus(...)  returns 0x00 (0001ms, 0616ms total)
T4BAC 000:721 JLINK_GetNumBPUnits(Type = 0xFFFFFF00)  returns 0x04 (0000ms, 0616ms total)
T4BAC 000:721 JLINK_GetNumBPUnits(Type = 0xF0)  returns 0x2000 (0000ms, 0616ms total)
T4BAC 000:721 JLINK_GetNumWPUnits()  returns 0x02 (0000ms, 0616ms total)
T4BAC 000:728 JLINK_GetSpeed()  returns 0xFA0 (0000ms, 0616ms total)
T4BAC 000:733 JLINK_ReadMemU32(0xE000E004, 0x0001 Items, ...) -- CPU_ReadMem(4 bytes @ 0xE000E004) - Data: 00 00 00 00  returns 0x01 (0000ms, 0616ms total)
T4BAC 000:733 JLINK_Halt()  returns 0x00 (0000ms, 0616ms total)
T4BAC 000:733 JLINK_IsHalted()  returns TRUE (0000ms, 0616ms total)
T4BAC 000:736 JLINK_WriteMem(0x20000000, 0x0250 Bytes, ...) - Data: 00 BE 0A E0 0D 78 2D 06 68 40 08 24 40 00 00 D3 ... -- CPU_WriteMem(592 bytes @ 0x20000000)  returns 0x250 (0009ms, 0625ms total)
T4BAC 000:745 JLINK_WriteReg(R0, 0x00000000)  returns 0x00 (0000ms, 0625ms total)
T4BAC 000:745 JLINK_WriteReg(R1, 0x00B71B00)  returns 0x00 (0000ms, 0625ms total)
T4BAC 000:745 JLINK_WriteReg(R2, 0x00000001)  returns 0x00 (0000ms, 0625ms total)
T4BAC 000:745 JLINK_WriteReg(R3, 0x00000000)  returns 0x00 (0000ms, 0625ms total)
T4BAC 000:745 JLINK_WriteReg(R4, 0x00000000)  returns 0x00 (0000ms, 0625ms total)
T4BAC 000:745 JLINK_WriteReg(R5, 0x00000000)  returns 0x00 (0000ms, 0625ms total)
T4BAC 000:745 JLINK_WriteReg(R6, 0x00000000)  returns 0x00 (0000ms, 0625ms total)
T4BAC 000:745 JLINK_WriteReg(R7, 0x00000000)  returns 0x00 (0000ms, 0625ms total)
T4BAC 000:745 JLINK_WriteReg(R8, 0x00000000)  returns 0x00 (0000ms, 0625ms total)
T4BAC 000:745 JLINK_WriteReg(R9, 0x2000024C)  returns 0x00 (0000ms, 0625ms total)
T4BAC 000:745 JLINK_WriteReg(R10, 0x00000000)  returns 0x00 (0000ms, 0625ms total)
T4BAC 000:745 JLINK_WriteReg(R11, 0x00000000)  returns 0x00 (0000ms, 0625ms total)
T4BAC 000:745 JLINK_WriteReg(R12, 0x00000000)  returns 0x00 (0000ms, 0625ms total)
T4BAC 000:745 JLINK_WriteReg(R13 (SP), 0x20001000)  returns 0x00 (0000ms, 0625ms total)
T4BAC 000:745 JLINK_WriteReg(R14, 0x20000001)  returns 0x00 (0000ms, 0625ms total)
T4BAC 000:745 JLINK_WriteReg(R15 (PC), 0x200000A8)  returns 0x00 (0000ms, 0625ms total)
T4BAC 000:745 JLINK_WriteReg(XPSR, 0x01000000)  returns 0x00 (0000ms, 0625ms total)
T4BAC 000:745 JLINK_WriteReg(MSP, 0x20001000)  returns 0x00 (0000ms, 0625ms total)
T4BAC 000:745 JLINK_WriteReg(PSP, 0x20001000)  returns 0x00 (0000ms, 0625ms total)
T4BAC 000:745 JLINK_WriteReg(CFBP, 0x00000000)  returns 0x00 (0000ms, 0625ms total)
T4BAC 000:745 JLINK_SetBPEx(Addr = 0x20000000, Type = 0xFFFFFFF2) -- CPU_ReadMem(4 bytes @ 0x20000000) -- CPU_WriteMem(4 bytes @ 0x20000000) -- CPU_ReadMem(4 bytes @ 0x20000000) -- CPU_WriteMem(4 bytes @ 0x20000000) -- CPU_ReadMem(2 bytes @ 0x20000000)  returns 0x00000001 (0003ms, 0628ms total)
T4BAC 000:748 JLINK_Go() -- CPU_WriteMem(2 bytes @ 0x20000000) -- CPU_WriteMem(4 bytes @ 0xE0002008) -- CPU_WriteMem(4 bytes @ 0xE000200C) -- CPU_WriteMem(4 bytes @ 0xE0002010) -- CPU_WriteMem(4 bytes @ 0xE0002014) -- CPU_WriteMem(4 bytes @ 0xE0001004) (0006ms, 0634ms total)
T4BAC 000:754 JLINK_IsHalted() -- CPU_ReadMem(2 bytes @ 0x20000000)  returns TRUE (0005ms, 0639ms total)
T4BAC 000:759 JLINK_ReadReg(R15 (PC))  returns 0x20000000 (0000ms, 0634ms total)
T4BAC 000:759 JLINK_ClrBPEx(BPHandle = 0x00000001)  returns 0x00 (0000ms, 0634ms total)
T4BAC 000:759 JLINK_ReadReg(R0)  returns 0x00000000 (0000ms, 0634ms total)
T4BAC 000:759 JLINK_WriteReg(R0, 0x00002000)  returns 0x00 (0000ms, 0634ms total)
T4BAC 000:759 JLINK_WriteReg(R1, 0x00000200)  returns 0x00 (0000ms, 0634ms total)
T4BAC 000:759 JLINK_WriteReg(R2, 0x000000FF)  returns 0x00 (0000ms, 0634ms total)
T4BAC 000:759 JLINK_WriteReg(R3, 0x00000000)  returns 0x00 (0000ms, 0634ms total)
T4BAC 000:759 JLINK_WriteReg(R4, 0x00000000)  returns 0x00 (0000ms, 0634ms total)
T4BAC 000:759 JLINK_WriteReg(R5, 0x00000000)  returns 0x00 (0000ms, 0634ms total)
T4BAC 000:759 JLINK_WriteReg(R6, 0x00000000)  returns 0x00 (0000ms, 0634ms total)
T4BAC 000:759 JLINK_WriteReg(R7, 0x00000000)  returns 0x00 (0000ms, 0634ms total)
T4BAC 000:759 JLINK_WriteReg(R8, 0x00000000)  returns 0x00 (0000ms, 0634ms total)
T4BAC 000:759 JLINK_WriteReg(R9, 0x2000024C)  returns 0x00 (0000ms, 0634ms total)
T4BAC 000:759 JLINK_WriteReg(R10, 0x00000000)  returns 0x00 (0000ms, 0634ms total)
T4BAC 000:759 JLINK_WriteReg(R11, 0x00000000)  returns 0x00 (0000ms, 0634ms total)
T4BAC 000:759 JLINK_WriteReg(R12, 0x00000000)  returns 0x00 (0000ms, 0634ms total)
T4BAC 000:759 JLINK_WriteReg(R13 (SP), 0x20001000)  returns 0x00 (0000ms, 0634ms total)
T4BAC 000:759 JLINK_WriteReg(R14, 0x20000001)  returns 0x00 (0000ms, 0634ms total)
T4BAC 000:759 JLINK_WriteReg(R15 (PC), 0x20000020)  returns 0x00 (0000ms, 0634ms total)
T4BAC 000:759 JLINK_WriteReg(XPSR, 0x01000000)  returns 0x00 (0000ms, 0634ms total)
T4BAC 000:759 JLINK_WriteReg(MSP, 0x20001000)  returns 0x00 (0000ms, 0634ms total)
T4BAC 000:759 JLINK_WriteReg(PSP, 0x20001000)  returns 0x00 (0000ms, 0634ms total)
T4BAC 000:759 JLINK_WriteReg(CFBP, 0x00000000)  returns 0x00 (0000ms, 0634ms total)
T4BAC 000:759 JLINK_SetBPEx(Addr = 0x20000000, Type = 0xFFFFFFF2)  returns 0x00000002 (0000ms, 0634ms total)
T4BAC 000:759 JLINK_Go() (0002ms, 0636ms total)
T4BAC 000:761 JLINK_IsHalted() -- CPU_ReadMem(2 bytes @ 0x20000000)  returns TRUE (0004ms, 0640ms total)
T4BAC 000:765 JLINK_ReadReg(R15 (PC))  returns 0x20000000 (0000ms, 0636ms total)
T4BAC 000:765 JLINK_ClrBPEx(BPHandle = 0x00000002)  returns 0x00 (0000ms, 0636ms total)
T4BAC 000:765 JLINK_ReadReg(R0)  returns 0x00000001 (0000ms, 0636ms total)
T4BAC 000:765 JLINK_WriteReg(R0, 0x00002000)  returns 0x00 (0000ms, 0636ms total)
T4BAC 000:765 JLINK_WriteReg(R1, 0x00000200)  returns 0x00 (0000ms, 0636ms total)
T4BAC 000:765 JLINK_WriteReg(R2, 0x000000FF)  returns 0x00 (0000ms, 0636ms total)
T4BAC 000:765 JLINK_WriteReg(R3, 0x00000000)  returns 0x00 (0000ms, 0636ms total)
T4BAC 000:765 JLINK_WriteReg(R4, 0x00000000)  returns 0x00 (0000ms, 0636ms total)
T4BAC 000:766 JLINK_WriteReg(R5, 0x00000000)  returns 0x00 (0000ms, 0637ms total)
T4BAC 000:766 JLINK_WriteReg(R6, 0x00000000)  returns 0x00 (0000ms, 0637ms total)
T4BAC 000:766 JLINK_WriteReg(R7, 0x00000000)  returns 0x00 (0000ms, 0637ms total)
T4BAC 000:766 JLINK_WriteReg(R8, 0x00000000)  returns 0x00 (0000ms, 0637ms total)
T4BAC 000:766 JLINK_WriteReg(R9, 0x2000024C)  returns 0x00 (0000ms, 0637ms total)
T4BAC 000:766 JLINK_WriteReg(R10, 0x00000000)  returns 0x00 (0000ms, 0637ms total)
T4BAC 000:766 JLINK_WriteReg(R11, 0x00000000)  returns 0x00 (0000ms, 0637ms total)
T4BAC 000:766 JLINK_WriteReg(R12, 0x00000000)  returns 0x00 (0000ms, 0637ms total)
T4BAC 000:766 JLINK_WriteReg(R13 (SP), 0x20001000)  returns 0x00 (0000ms, 0637ms total)
T4BAC 000:766 JLINK_WriteReg(R14, 0x20000001)  returns 0x00 (0000ms, 0637ms total)
T4BAC 000:766 JLINK_WriteReg(R15 (PC), 0x20000074)  returns 0x00 (0000ms, 0637ms total)
T4BAC 000:766 JLINK_WriteReg(XPSR, 0x01000000)  returns 0x00 (0000ms, 0637ms total)
T4BAC 000:766 JLINK_WriteReg(MSP, 0x20001000)  returns 0x00 (0000ms, 0637ms total)
T4BAC 000:766 JLINK_WriteReg(PSP, 0x20001000)  returns 0x00 (0000ms, 0637ms total)
T4BAC 000:766 JLINK_WriteReg(CFBP, 0x00000000)  returns 0x00 (0000ms, 0637ms total)
T4BAC 000:766 JLINK_SetBPEx(Addr = 0x20000000, Type = 0xFFFFFFF2)  returns 0x00000003 (0000ms, 0637ms total)
T4BAC 000:766 JLINK_Go() (0001ms, 0638ms total)
T4BAC 000:767 JLINK_IsHalted()  returns FALSE (0001ms, 0639ms total)
T4BAC 000:820 JLINK_IsHalted() -- CPU_ReadMem(2 bytes @ 0x20000000)  returns TRUE (0004ms, 0642ms total)
T4BAC 000:824 JLINK_ReadReg(R15 (PC))  returns 0x20000000 (0000ms, 0638ms total)
T4BAC 000:824 JLINK_ClrBPEx(BPHandle = 0x00000003)  returns 0x00 (0000ms, 0638ms total)
T4BAC 000:824 JLINK_ReadReg(R0)  returns 0x00000000 (0000ms, 0638ms total)
T4BAC 000:825 JLINK_WriteReg(R0, 0x00002200)  returns 0x00 (0000ms, 0638ms total)
T4BAC 000:825 JLINK_WriteReg(R1, 0x00000200)  returns 0x00 (0000ms, 0638ms total)
T4BAC 000:825 JLINK_WriteReg(R2, 0x000000FF)  returns 0x00 (0000ms, 0638ms total)
T4BAC 000:825 JLINK_WriteReg(R3, 0x00000000)  returns 0x00 (0000ms, 0638ms total)
T4BAC 000:825 JLINK_WriteReg(R4, 0x00000000)  returns 0x00 (0000ms, 0638ms total)
T4BAC 000:825 JLINK_WriteReg(R5, 0x00000000)  returns 0x00 (0000ms, 0638ms total)
T4BAC 000:825 JLINK_WriteReg(R6, 0x00000000)  returns 0x00 (0000ms, 0638ms total)
T4BAC 000:825 JLINK_WriteReg(R7, 0x00000000)  returns 0x00 (0000ms, 0638ms total)
T4BAC 000:825 JLINK_WriteReg(R8, 0x00000000)  returns 0x00 (0000ms, 0638ms total)
T4BAC 000:825 JLINK_WriteReg(R9, 0x2000024C)  returns 0x00 (0000ms, 0638ms total)
T4BAC 000:825 JLINK_WriteReg(R10, 0x00000000)  returns 0x00 (0000ms, 0638ms total)
T4BAC 000:825 JLINK_WriteReg(R11, 0x00000000)  returns 0x00 (0000ms, 0638ms total)
T4BAC 000:825 JLINK_WriteReg(R12, 0x00000000)  returns 0x00 (0000ms, 0638ms total)
T4BAC 000:825 JLINK_WriteReg(R13 (SP), 0x20001000)  returns 0x00 (0000ms, 0638ms total)
T4BAC 000:825 JLINK_WriteReg(R14, 0x20000001)  returns 0x00 (0000ms, 0638ms total)
T4BAC 000:825 JLINK_WriteReg(R15 (PC), 0x20000020)  returns 0x00 (0000ms, 0638ms total)
T4BAC 000:825 JLINK_WriteReg(XPSR, 0x01000000)  returns 0x00 (0000ms, 0638ms total)
T4BAC 000:825 JLINK_WriteReg(MSP, 0x20001000)  returns 0x00 (0000ms, 0638ms total)
T4BAC 000:825 JLINK_WriteReg(PSP, 0x20001000)  returns 0x00 (0000ms, 0638ms total)
T4BAC 000:825 JLINK_WriteReg(CFBP, 0x00000000)  returns 0x00 (0000ms, 0638ms total)
T4BAC 000:825 JLINK_SetBPEx(Addr = 0x20000000, Type = 0xFFFFFFF2)  returns 0x00000004 (0000ms, 0638ms total)
T4BAC 000:825 JLINK_Go() (0002ms, 0640ms total)
T4BAC 000:827 JLINK_IsHalted() -- CPU_ReadMem(2 bytes @ 0x20000000)  returns TRUE (0005ms, 0645ms total)
T4BAC 000:832 JLINK_ReadReg(R15 (PC))  returns 0x20000000 (0000ms, 0640ms total)
T4BAC 000:832 JLINK_ClrBPEx(BPHandle = 0x00000004)  returns 0x00 (0000ms, 0640ms total)
T4BAC 000:832 JLINK_ReadReg(R0)  returns 0x00000001 (0000ms, 0640ms total)
T4BAC 000:832 JLINK_WriteReg(R0, 0x00002200)  returns 0x00 (0000ms, 0640ms total)
T4BAC 000:832 JLINK_WriteReg(R1, 0x00000200)  returns 0x00 (0000ms, 0640ms total)
T4BAC 000:832 JLINK_WriteReg(R2, 0x000000FF)  returns 0x00 (0000ms, 0640ms total)
T4BAC 000:832 JLINK_WriteReg(R3, 0x00000000)  returns 0x00 (0000ms, 0640ms total)
T4BAC 000:832 JLINK_WriteReg(R4, 0x00000000)  returns 0x00 (0000ms, 0640ms total)
T4BAC 000:832 JLINK_WriteReg(R5, 0x00000000)  returns 0x00 (0000ms, 0640ms total)
T4BAC 000:832 JLINK_WriteReg(R6, 0x00000000)  returns 0x00 (0000ms, 0640ms total)
T4BAC 000:832 JLINK_WriteReg(R7, 0x00000000)  returns 0x00 (0000ms, 0640ms total)
T4BAC 000:832 JLINK_WriteReg(R8, 0x00000000)  returns 0x00 (0000ms, 0640ms total)
T4BAC 000:832 JLINK_WriteReg(R9, 0x2000024C)  returns 0x00 (0000ms, 0640ms total)
T4BAC 000:832 JLINK_WriteReg(R10, 0x00000000)  returns 0x00 (0000ms, 0640ms total)
T4BAC 000:832 JLINK_WriteReg(R11, 0x00000000)  returns 0x00 (0000ms, 0640ms total)
T4BAC 000:832 JLINK_WriteReg(R12, 0x00000000)  returns 0x00 (0000ms, 0640ms total)
T4BAC 000:832 JLINK_WriteReg(R13 (SP), 0x20001000)  returns 0x00 (0000ms, 0640ms total)
T4BAC 000:832 JLINK_WriteReg(R14, 0x20000001)  returns 0x00 (0000ms, 0640ms total)
T4BAC 000:832 JLINK_WriteReg(R15 (PC), 0x20000074)  returns 0x00 (0000ms, 0640ms total)
T4BAC 000:832 JLINK_WriteReg(XPSR, 0x01000000)  returns 0x00 (0000ms, 0640ms total)
T4BAC 000:832 JLINK_WriteReg(MSP, 0x20001000)  returns 0x00 (0000ms, 0640ms total)
T4BAC 000:832 JLINK_WriteReg(PSP, 0x20001000)  returns 0x00 (0000ms, 0640ms total)
T4BAC 000:832 JLINK_WriteReg(CFBP, 0x00000000)  returns 0x00 (0000ms, 0640ms total)
T4BAC 000:832 JLINK_SetBPEx(Addr = 0x20000000, Type = 0xFFFFFFF2)  returns 0x00000005 (0000ms, 0640ms total)
T4BAC 000:832 JLINK_Go() (0002ms, 0642ms total)
T4BAC 000:834 JLINK_IsHalted()  returns FALSE (0000ms, 0642ms total)
T4BAC 000:839 JLINK_IsHalted() -- CPU_ReadMem(2 bytes @ 0x20000000)  returns TRUE (0003ms, 0645ms total)
T4BAC 000:842 JLINK_ReadReg(R15 (PC))  returns 0x20000000 (0000ms, 0642ms total)
T4BAC 000:842 JLINK_ClrBPEx(BPHandle = 0x00000005)  returns 0x00 (0000ms, 0642ms total)
T4BAC 000:842 JLINK_ReadReg(R0)  returns 0x00000000 (0000ms, 0642ms total)
T4BAC 000:844 JLINK_WriteReg(R0, 0x00002400)  returns 0x00 (0000ms, 0642ms total)
T4BAC 000:844 JLINK_WriteReg(R1, 0x00000200)  returns 0x00 (0000ms, 0642ms total)
T4BAC 000:844 JLINK_WriteReg(R2, 0x000000FF)  returns 0x00 (0000ms, 0642ms total)
T4BAC 000:844 JLINK_WriteReg(R3, 0x00000000)  returns 0x00 (0000ms, 0642ms total)
T4BAC 000:844 JLINK_WriteReg(R4, 0x00000000)  returns 0x00 (0000ms, 0642ms total)
T4BAC 000:844 JLINK_WriteReg(R5, 0x00000000)  returns 0x00 (0000ms, 0642ms total)
T4BAC 000:844 JLINK_WriteReg(R6, 0x00000000)  returns 0x00 (0000ms, 0642ms total)
T4BAC 000:844 JLINK_WriteReg(R7, 0x00000000)  returns 0x00 (0000ms, 0642ms total)
T4BAC 000:844 JLINK_WriteReg(R8, 0x00000000)  returns 0x00 (0000ms, 0642ms total)
T4BAC 000:844 JLINK_WriteReg(R9, 0x2000024C)  returns 0x00 (0000ms, 0642ms total)
T4BAC 000:844 JLINK_WriteReg(R10, 0x00000000)  returns 0x00 (0000ms, 0642ms total)
T4BAC 000:844 JLINK_WriteReg(R11, 0x00000000)  returns 0x00 (0000ms, 0642ms total)
T4BAC 000:844 JLINK_WriteReg(R12, 0x00000000)  returns 0x00 (0000ms, 0642ms total)
T4BAC 000:844 JLINK_WriteReg(R13 (SP), 0x20001000)  returns 0x00 (0000ms, 0642ms total)
T4BAC 000:844 JLINK_WriteReg(R14, 0x20000001)  returns 0x00 (0000ms, 0642ms total)
T4BAC 000:844 JLINK_WriteReg(R15 (PC), 0x20000020)  returns 0x00 (0000ms, 0642ms total)
T4BAC 000:844 JLINK_WriteReg(XPSR, 0x01000000)  returns 0x00 (0000ms, 0642ms total)
T4BAC 000:844 JLINK_WriteReg(MSP, 0x20001000)  returns 0x00 (0000ms, 0642ms total)
T4BAC 000:844 JLINK_WriteReg(PSP, 0x20001000)  returns 0x00 (0000ms, 0642ms total)
T4BAC 000:844 JLINK_WriteReg(CFBP, 0x00000000)  returns 0x00 (0000ms, 0642ms total)
T4BAC 000:844 JLINK_SetBPEx(Addr = 0x20000000, Type = 0xFFFFFFF2)  returns 0x00000006 (0000ms, 0642ms total)
T4BAC 000:844 JLINK_Go() (0002ms, 0644ms total)
T4BAC 000:846 JLINK_IsHalted() -- CPU_ReadMem(2 bytes @ 0x20000000)  returns TRUE (0004ms, 0648ms total)
T4BAC 000:850 JLINK_ReadReg(R15 (PC))  returns 0x20000000 (0000ms, 0644ms total)
T4BAC 000:850 JLINK_ClrBPEx(BPHandle = 0x00000006)  returns 0x00 (0000ms, 0644ms total)
T4BAC 000:850 JLINK_ReadReg(R0)  returns 0x00000001 (0000ms, 0644ms total)
T4BAC 000:850 JLINK_WriteReg(R0, 0x00002400)  returns 0x00 (0000ms, 0644ms total)
T4BAC 000:850 JLINK_WriteReg(R1, 0x00000200)  returns 0x00 (0000ms, 0644ms total)
T4BAC 000:850 JLINK_WriteReg(R2, 0x000000FF)  returns 0x00 (0000ms, 0644ms total)
T4BAC 000:850 JLINK_WriteReg(R3, 0x00000000)  returns 0x00 (0000ms, 0644ms total)
T4BAC 000:850 JLINK_WriteReg(R4, 0x00000000)  returns 0x00 (0000ms, 0644ms total)
T4BAC 000:850 JLINK_WriteReg(R5, 0x00000000)  returns 0x00 (0000ms, 0644ms total)
T4BAC 000:850 JLINK_WriteReg(R6, 0x00000000)  returns 0x00 (0000ms, 0644ms total)
T4BAC 000:850 JLINK_WriteReg(R7, 0x00000000)  returns 0x00 (0000ms, 0644ms total)
T4BAC 000:850 JLINK_WriteReg(R8, 0x00000000)  returns 0x00 (0000ms, 0644ms total)
T4BAC 000:850 JLINK_WriteReg(R9, 0x2000024C)  returns 0x00 (0000ms, 0644ms total)
T4BAC 000:850 JLINK_WriteReg(R10, 0x00000000)  returns 0x00 (0000ms, 0644ms total)
T4BAC 000:850 JLINK_WriteReg(R11, 0x00000000)  returns 0x00 (0000ms, 0644ms total)
T4BAC 000:850 JLINK_WriteReg(R12, 0x00000000)  returns 0x00 (0000ms, 0644ms total)
T4BAC 000:850 JLINK_WriteReg(R13 (SP), 0x20001000)  returns 0x00 (0000ms, 0644ms total)
T4BAC 000:850 JLINK_WriteReg(R14, 0x20000001)  returns 0x00 (0000ms, 0644ms total)
T4BAC 000:850 JLINK_WriteReg(R15 (PC), 0x20000074)  returns 0x00 (0000ms, 0644ms total)
T4BAC 000:850 JLINK_WriteReg(XPSR, 0x01000000)  returns 0x00 (0000ms, 0644ms total)
T4BAC 000:850 JLINK_WriteReg(MSP, 0x20001000)  returns 0x00 (0000ms, 0644ms total)
T4BAC 000:850 JLINK_WriteReg(PSP, 0x20001000)  returns 0x00 (0000ms, 0644ms total)
T4BAC 000:850 JLINK_WriteReg(CFBP, 0x00000000)  returns 0x00 (0000ms, 0644ms total)
T4BAC 000:850 JLINK_SetBPEx(Addr = 0x20000000, Type = 0xFFFFFFF2)  returns 0x00000007 (0000ms, 0644ms total)
T4BAC 000:850 JLINK_Go() (0001ms, 0645ms total)
T4BAC 000:851 JLINK_IsHalted()  returns FALSE (0001ms, 0646ms total)
T4BAC 000:856 JLINK_IsHalted()  returns FALSE (0000ms, 0645ms total)
T4BAC 000:858 JLINK_IsHalted() -- CPU_ReadMem(2 bytes @ 0x20000000)  returns TRUE (0004ms, 0649ms total)
T4BAC 000:862 JLINK_ReadReg(R15 (PC))  returns 0x20000000 (0000ms, 0645ms total)
T4BAC 000:862 JLINK_ClrBPEx(BPHandle = 0x00000007)  returns 0x00 (0000ms, 0645ms total)
T4BAC 000:862 JLINK_ReadReg(R0)  returns 0x00000000 (0000ms, 0645ms total)
T4BAC 000:862 JLINK_WriteReg(R0, 0x00002600)  returns 0x00 (0000ms, 0645ms total)
T4BAC 000:862 JLINK_WriteReg(R1, 0x00000200)  returns 0x00 (0000ms, 0645ms total)
T4BAC 000:862 JLINK_WriteReg(R2, 0x000000FF)  returns 0x00 (0000ms, 0645ms total)
T4BAC 000:862 JLINK_WriteReg(R3, 0x00000000)  returns 0x00 (0000ms, 0645ms total)
T4BAC 000:862 JLINK_WriteReg(R4, 0x00000000)  returns 0x00 (0000ms, 0645ms total)
T4BAC 000:862 JLINK_WriteReg(R5, 0x00000000)  returns 0x00 (0000ms, 0645ms total)
T4BAC 000:862 JLINK_WriteReg(R6, 0x00000000)  returns 0x00 (0000ms, 0645ms total)
T4BAC 000:862 JLINK_WriteReg(R7, 0x00000000)  returns 0x00 (0000ms, 0645ms total)
T4BAC 000:862 JLINK_WriteReg(R8, 0x00000000)  returns 0x00 (0000ms, 0645ms total)
T4BAC 000:862 JLINK_WriteReg(R9, 0x2000024C)  returns 0x00 (0000ms, 0645ms total)
T4BAC 000:862 JLINK_WriteReg(R10, 0x00000000)  returns 0x00 (0000ms, 0645ms total)
T4BAC 000:862 JLINK_WriteReg(R11, 0x00000000)  returns 0x00 (0000ms, 0645ms total)
T4BAC 000:862 JLINK_WriteReg(R12, 0x00000000)  returns 0x00 (0000ms, 0645ms total)
T4BAC 000:862 JLINK_WriteReg(R13 (SP), 0x20001000)  returns 0x00 (0000ms, 0645ms total)
T4BAC 000:862 JLINK_WriteReg(R14, 0x20000001)  returns 0x00 (0000ms, 0645ms total)
T4BAC 000:862 JLINK_WriteReg(R15 (PC), 0x20000020)  returns 0x00 (0000ms, 0645ms total)
T4BAC 000:862 JLINK_WriteReg(XPSR, 0x01000000)  returns 0x00 (0000ms, 0645ms total)
T4BAC 000:862 JLINK_WriteReg(MSP, 0x20001000)  returns 0x00 (0000ms, 0645ms total)
T4BAC 000:862 JLINK_WriteReg(PSP, 0x20001000)  returns 0x00 (0000ms, 0645ms total)
T4BAC 000:862 JLINK_WriteReg(CFBP, 0x00000000)  returns 0x00 (0000ms, 0645ms total)
T4BAC 000:862 JLINK_SetBPEx(Addr = 0x20000000, Type = 0xFFFFFFF2)  returns 0x00000008 (0000ms, 0645ms total)
T4BAC 000:862 JLINK_Go() (0003ms, 0648ms total)
T4BAC 000:865 JLINK_IsHalted() -- CPU_ReadMem(2 bytes @ 0x20000000)  returns TRUE (0004ms, 0652ms total)
T4BAC 000:869 JLINK_ReadReg(R15 (PC))  returns 0x20000000 (0000ms, 0648ms total)
T4BAC 000:869 JLINK_ClrBPEx(BPHandle = 0x00000008)  returns 0x00 (0000ms, 0648ms total)
T4BAC 000:869 JLINK_ReadReg(R0)  returns 0x00000001 (0000ms, 0648ms total)
T4BAC 000:869 JLINK_WriteReg(R0, 0x00002600)  returns 0x00 (0000ms, 0648ms total)
T4BAC 000:869 JLINK_WriteReg(R1, 0x00000200)  returns 0x00 (0000ms, 0648ms total)
T4BAC 000:869 JLINK_WriteReg(R2, 0x000000FF)  returns 0x00 (0000ms, 0648ms total)
T4BAC 000:869 JLINK_WriteReg(R3, 0x00000000)  returns 0x00 (0000ms, 0648ms total)
T4BAC 000:869 JLINK_WriteReg(R4, 0x00000000)  returns 0x00 (0000ms, 0648ms total)
T4BAC 000:869 JLINK_WriteReg(R5, 0x00000000)  returns 0x00 (0000ms, 0648ms total)
T4BAC 000:869 JLINK_WriteReg(R6, 0x00000000)  returns 0x00 (0000ms, 0648ms total)
T4BAC 000:869 JLINK_WriteReg(R7, 0x00000000)  returns 0x00 (0000ms, 0648ms total)
T4BAC 000:869 JLINK_WriteReg(R8, 0x00000000)  returns 0x00 (0000ms, 0648ms total)
T4BAC 000:869 JLINK_WriteReg(R9, 0x2000024C)  returns 0x00 (0000ms, 0648ms total)
T4BAC 000:869 JLINK_WriteReg(R10, 0x00000000)  returns 0x00 (0000ms, 0648ms total)
T4BAC 000:869 JLINK_WriteReg(R11, 0x00000000)  returns 0x00 (0000ms, 0648ms total)
T4BAC 000:869 JLINK_WriteReg(R12, 0x00000000)  returns 0x00 (0000ms, 0648ms total)
T4BAC 000:869 JLINK_WriteReg(R13 (SP), 0x20001000)  returns 0x00 (0000ms, 0648ms total)
T4BAC 000:869 JLINK_WriteReg(R14, 0x20000001)  returns 0x00 (0000ms, 0648ms total)
T4BAC 000:869 JLINK_WriteReg(R15 (PC), 0x20000074)  returns 0x00 (0000ms, 0648ms total)
T4BAC 000:869 JLINK_WriteReg(XPSR, 0x01000000)  returns 0x00 (0000ms, 0648ms total)
T4BAC 000:869 JLINK_WriteReg(MSP, 0x20001000)  returns 0x00 (0000ms, 0648ms total)
T4BAC 000:869 JLINK_WriteReg(PSP, 0x20001000)  returns 0x00 (0000ms, 0648ms total)
T4BAC 000:869 JLINK_WriteReg(CFBP, 0x00000000)  returns 0x00 (0000ms, 0648ms total)
T4BAC 000:869 JLINK_SetBPEx(Addr = 0x20000000, Type = 0xFFFFFFF2)  returns 0x00000009 (0000ms, 0648ms total)
T4BAC 000:869 JLINK_Go() (0002ms, 0650ms total)
T4BAC 000:871 JLINK_IsHalted()  returns FALSE (0000ms, 0650ms total)
T4BAC 000:875 JLINK_IsHalted()  returns FALSE (0000ms, 0650ms total)
T4BAC 000:877 JLINK_IsHalted() -- CPU_ReadMem(2 bytes @ 0x20000000)  returns TRUE (0004ms, 0654ms total)
T4BAC 000:881 JLINK_ReadReg(R15 (PC))  returns 0x20000000 (0000ms, 0650ms total)
T4BAC 000:881 JLINK_ClrBPEx(BPHandle = 0x00000009)  returns 0x00 (0000ms, 0650ms total)
T4BAC 000:881 JLINK_ReadReg(R0)  returns 0x00000000 (0000ms, 0650ms total)
T4BAC 000:882 JLINK_WriteReg(R0, 0x00002800)  returns 0x00 (0000ms, 0650ms total)
T4BAC 000:882 JLINK_WriteReg(R1, 0x00000200)  returns 0x00 (0000ms, 0650ms total)
T4BAC 000:882 JLINK_WriteReg(R2, 0x000000FF)  returns 0x00 (0000ms, 0650ms total)
T4BAC 000:882 JLINK_WriteReg(R3, 0x00000000)  returns 0x00 (0000ms, 0650ms total)
T4BAC 000:882 JLINK_WriteReg(R4, 0x00000000)  returns 0x00 (0000ms, 0650ms total)
T4BAC 000:882 JLINK_WriteReg(R5, 0x00000000)  returns 0x00 (0000ms, 0650ms total)
T4BAC 000:882 JLINK_WriteReg(R6, 0x00000000)  returns 0x00 (0000ms, 0650ms total)
T4BAC 000:882 JLINK_WriteReg(R7, 0x00000000)  returns 0x00 (0000ms, 0650ms total)
T4BAC 000:882 JLINK_WriteReg(R8, 0x00000000)  returns 0x00 (0000ms, 0650ms total)
T4BAC 000:882 JLINK_WriteReg(R9, 0x2000024C)  returns 0x00 (0000ms, 0650ms total)
T4BAC 000:882 JLINK_WriteReg(R10, 0x00000000)  returns 0x00 (0000ms, 0650ms total)
T4BAC 000:882 JLINK_WriteReg(R11, 0x00000000)  returns 0x00 (0000ms, 0650ms total)
T4BAC 000:882 JLINK_WriteReg(R12, 0x00000000)  returns 0x00 (0000ms, 0650ms total)
T4BAC 000:882 JLINK_WriteReg(R13 (SP), 0x20001000)  returns 0x00 (0000ms, 0650ms total)
T4BAC 000:882 JLINK_WriteReg(R14, 0x20000001)  returns 0x00 (0000ms, 0650ms total)
T4BAC 000:882 JLINK_WriteReg(R15 (PC), 0x20000020)  returns 0x00 (0000ms, 0650ms total)
T4BAC 000:882 JLINK_WriteReg(XPSR, 0x01000000)  returns 0x00 (0000ms, 0650ms total)
T4BAC 000:882 JLINK_WriteReg(MSP, 0x20001000)  returns 0x00 (0000ms, 0650ms total)
T4BAC 000:882 JLINK_WriteReg(PSP, 0x20001000)  returns 0x00 (0000ms, 0650ms total)
T4BAC 000:882 JLINK_WriteReg(CFBP, 0x00000000)  returns 0x00 (0000ms, 0650ms total)
T4BAC 000:882 JLINK_SetBPEx(Addr = 0x20000000, Type = 0xFFFFFFF2)  returns 0x0000000A (0000ms, 0650ms total)
T4BAC 000:882 JLINK_Go() (0001ms, 0651ms total)
T4BAC 000:883 JLINK_IsHalted() -- CPU_ReadMem(2 bytes @ 0x20000000)  returns TRUE (0005ms, 0656ms total)
T4BAC 000:888 JLINK_ReadReg(R15 (PC))  returns 0x20000000 (0000ms, 0651ms total)
T4BAC 000:888 JLINK_ClrBPEx(BPHandle = 0x0000000A)  returns 0x00 (0000ms, 0651ms total)
T4BAC 000:888 JLINK_ReadReg(R0)  returns 0x00000001 (0000ms, 0651ms total)
T4BAC 000:888 JLINK_WriteReg(R0, 0x00002800)  returns 0x00 (0000ms, 0651ms total)
T4BAC 000:888 JLINK_WriteReg(R1, 0x00000200)  returns 0x00 (0000ms, 0651ms total)
T4BAC 000:888 JLINK_WriteReg(R2, 0x000000FF)  returns 0x00 (0000ms, 0651ms total)
T4BAC 000:888 JLINK_WriteReg(R3, 0x00000000)  returns 0x00 (0000ms, 0651ms total)
T4BAC 000:888 JLINK_WriteReg(R4, 0x00000000)  returns 0x00 (0000ms, 0651ms total)
T4BAC 000:888 JLINK_WriteReg(R5, 0x00000000)  returns 0x00 (0000ms, 0651ms total)
T4BAC 000:888 JLINK_WriteReg(R6, 0x00000000)  returns 0x00 (0000ms, 0651ms total)
T4BAC 000:888 JLINK_WriteReg(R7, 0x00000000)  returns 0x00 (0000ms, 0651ms total)
T4BAC 000:888 JLINK_WriteReg(R8, 0x00000000)  returns 0x00 (0000ms, 0651ms total)
T4BAC 000:888 JLINK_WriteReg(R9, 0x2000024C)  returns 0x00 (0000ms, 0651ms total)
T4BAC 000:888 JLINK_WriteReg(R10, 0x00000000)  returns 0x00 (0000ms, 0651ms total)
T4BAC 000:888 JLINK_WriteReg(R11, 0x00000000)  returns 0x00 (0000ms, 0651ms total)
T4BAC 000:888 JLINK_WriteReg(R12, 0x00000000)  returns 0x00 (0000ms, 0651ms total)
T4BAC 000:888 JLINK_WriteReg(R13 (SP), 0x20001000)  returns 0x00 (0000ms, 0651ms total)
T4BAC 000:888 JLINK_WriteReg(R14, 0x20000001)  returns 0x00 (0000ms, 0651ms total)
T4BAC 000:888 JLINK_WriteReg(R15 (PC), 0x20000074)  returns 0x00 (0000ms, 0651ms total)
T4BAC 000:888 JLINK_WriteReg(XPSR, 0x01000000)  returns 0x00 (0000ms, 0651ms total)
T4BAC 000:888 JLINK_WriteReg(MSP, 0x20001000)  returns 0x00 (0001ms, 0652ms total)
T4BAC 000:889 JLINK_WriteReg(PSP, 0x20001000)  returns 0x00 (0000ms, 0652ms total)
T4BAC 000:889 JLINK_WriteReg(CFBP, 0x00000000)  returns 0x00 (0000ms, 0652ms total)
T4BAC 000:889 JLINK_SetBPEx(Addr = 0x20000000, Type = 0xFFFFFFF2)  returns 0x0000000B (0000ms, 0652ms total)
T4BAC 000:889 JLINK_Go() (0001ms, 0653ms total)
T4BAC 000:890 JLINK_IsHalted()  returns FALSE (0001ms, 0654ms total)
T4BAC 000:897 JLINK_IsHalted() -- CPU_ReadMem(2 bytes @ 0x20000000)  returns TRUE (0004ms, 0657ms total)
T4BAC 000:901 JLINK_ReadReg(R15 (PC))  returns 0x20000000 (0000ms, 0653ms total)
T4BAC 000:901 JLINK_ClrBPEx(BPHandle = 0x0000000B)  returns 0x00 (0000ms, 0653ms total)
T4BAC 000:901 JLINK_ReadReg(R0)  returns 0x00000000 (0001ms, 0654ms total)
T4BAC 000:902 JLINK_WriteReg(R0, 0x00002A00)  returns 0x00 (0000ms, 0654ms total)
T4BAC 000:902 JLINK_WriteReg(R1, 0x00000200)  returns 0x00 (0000ms, 0654ms total)
T4BAC 000:902 JLINK_WriteReg(R2, 0x000000FF)  returns 0x00 (0000ms, 0654ms total)
T4BAC 000:902 JLINK_WriteReg(R3, 0x00000000)  returns 0x00 (0000ms, 0654ms total)
T4BAC 000:902 JLINK_WriteReg(R4, 0x00000000)  returns 0x00 (0000ms, 0654ms total)
T4BAC 000:902 JLINK_WriteReg(R5, 0x00000000)  returns 0x00 (0000ms, 0654ms total)
T4BAC 000:902 JLINK_WriteReg(R6, 0x00000000)  returns 0x00 (0000ms, 0654ms total)
T4BAC 000:902 JLINK_WriteReg(R7, 0x00000000)  returns 0x00 (0000ms, 0654ms total)
T4BAC 000:902 JLINK_WriteReg(R8, 0x00000000)  returns 0x00 (0000ms, 0654ms total)
T4BAC 000:902 JLINK_WriteReg(R9, 0x2000024C)  returns 0x00 (0000ms, 0654ms total)
T4BAC 000:902 JLINK_WriteReg(R10, 0x00000000)  returns 0x00 (0000ms, 0654ms total)
T4BAC 000:902 JLINK_WriteReg(R11, 0x00000000)  returns 0x00 (0000ms, 0654ms total)
T4BAC 000:902 JLINK_WriteReg(R12, 0x00000000)  returns 0x00 (0000ms, 0654ms total)
T4BAC 000:902 JLINK_WriteReg(R13 (SP), 0x20001000)  returns 0x00 (0000ms, 0654ms total)
T4BAC 000:903 JLINK_WriteReg(R14, 0x20000001)  returns 0x00 (0000ms, 0655ms total)
T4BAC 000:903 JLINK_WriteReg(R15 (PC), 0x20000020)  returns 0x00 (0000ms, 0655ms total)
T4BAC 000:903 JLINK_WriteReg(XPSR, 0x01000000)  returns 0x00 (0000ms, 0655ms total)
T4BAC 000:903 JLINK_WriteReg(MSP, 0x20001000)  returns 0x00 (0000ms, 0655ms total)
T4BAC 000:903 JLINK_WriteReg(PSP, 0x20001000)  returns 0x00 (0000ms, 0655ms total)
T4BAC 000:903 JLINK_WriteReg(CFBP, 0x00000000)  returns 0x00 (0000ms, 0655ms total)
T4BAC 000:903 JLINK_SetBPEx(Addr = 0x20000000, Type = 0xFFFFFFF2)  returns 0x0000000C (0000ms, 0655ms total)
T4BAC 000:903 JLINK_Go() (0001ms, 0656ms total)
T4BAC 000:904 JLINK_IsHalted() -- CPU_ReadMem(2 bytes @ 0x20000000)  returns TRUE (0004ms, 0660ms total)
T4BAC 000:908 JLINK_ReadReg(R15 (PC))  returns 0x20000000 (0000ms, 0656ms total)
T4BAC 000:908 JLINK_ClrBPEx(BPHandle = 0x0000000C)  returns 0x00 (0000ms, 0656ms total)
T4BAC 000:908 JLINK_ReadReg(R0)  returns 0x00000001 (0000ms, 0656ms total)
T4BAC 000:908 JLINK_WriteReg(R0, 0x00002A00)  returns 0x00 (0000ms, 0656ms total)
T4BAC 000:908 JLINK_WriteReg(R1, 0x00000200)  returns 0x00 (0000ms, 0656ms total)
T4BAC 000:908 JLINK_WriteReg(R2, 0x000000FF)  returns 0x00 (0000ms, 0656ms total)
T4BAC 000:908 JLINK_WriteReg(R3, 0x00000000)  returns 0x00 (0000ms, 0656ms total)
T4BAC 000:908 JLINK_WriteReg(R4, 0x00000000)  returns 0x00 (0000ms, 0656ms total)
T4BAC 000:908 JLINK_WriteReg(R5, 0x00000000)  returns 0x00 (0000ms, 0656ms total)
T4BAC 000:908 JLINK_WriteReg(R6, 0x00000000)  returns 0x00 (0000ms, 0656ms total)
T4BAC 000:908 JLINK_WriteReg(R7, 0x00000000)  returns 0x00 (0000ms, 0656ms total)
T4BAC 000:908 JLINK_WriteReg(R8, 0x00000000)  returns 0x00 (0000ms, 0656ms total)
T4BAC 000:908 JLINK_WriteReg(R9, 0x2000024C)  returns 0x00 (0000ms, 0656ms total)
T4BAC 000:908 JLINK_WriteReg(R10, 0x00000000)  returns 0x00 (0000ms, 0656ms total)
T4BAC 000:908 JLINK_WriteReg(R11, 0x00000000)  returns 0x00 (0000ms, 0656ms total)
T4BAC 000:908 JLINK_WriteReg(R12, 0x00000000)  returns 0x00 (0000ms, 0656ms total)
T4BAC 000:908 JLINK_WriteReg(R13 (SP), 0x20001000)  returns 0x00 (0000ms, 0656ms total)
T4BAC 000:908 JLINK_WriteReg(R14, 0x20000001)  returns 0x00 (0000ms, 0656ms total)
T4BAC 000:908 JLINK_WriteReg(R15 (PC), 0x20000074)  returns 0x00 (0000ms, 0656ms total)
T4BAC 000:908 JLINK_WriteReg(XPSR, 0x01000000)  returns 0x00 (0000ms, 0656ms total)
T4BAC 000:908 JLINK_WriteReg(MSP, 0x20001000)  returns 0x00 (0000ms, 0656ms total)
T4BAC 000:908 JLINK_WriteReg(PSP, 0x20001000)  returns 0x00 (0000ms, 0656ms total)
T4BAC 000:908 JLINK_WriteReg(CFBP, 0x00000000)  returns 0x00 (0000ms, 0656ms total)
T4BAC 000:908 JLINK_SetBPEx(Addr = 0x20000000, Type = 0xFFFFFFF2)  returns 0x0000000D (0000ms, 0656ms total)
T4BAC 000:908 JLINK_Go() (0003ms, 0659ms total)
T4BAC 000:911 JLINK_IsHalted()  returns FALSE (0000ms, 0659ms total)
T4BAC 000:915 JLINK_IsHalted()  returns FALSE (0000ms, 0659ms total)
T4BAC 000:917 JLINK_IsHalted() -- CPU_ReadMem(2 bytes @ 0x20000000)  returns TRUE (0004ms, 0663ms total)
T4BAC 000:921 JLINK_ReadReg(R15 (PC))  returns 0x20000000 (0000ms, 0659ms total)
T4BAC 000:921 JLINK_ClrBPEx(BPHandle = 0x0000000D)  returns 0x00 (0000ms, 0659ms total)
T4BAC 000:921 JLINK_ReadReg(R0)  returns 0x00000000 (0000ms, 0659ms total)
T4BAC 000:921 JLINK_WriteReg(R0, 0x00002C00)  returns 0x00 (0000ms, 0659ms total)
T4BAC 000:921 JLINK_WriteReg(R1, 0x00000200)  returns 0x00 (0000ms, 0659ms total)
T4BAC 000:921 JLINK_WriteReg(R2, 0x000000FF)  returns 0x00 (0000ms, 0659ms total)
T4BAC 000:921 JLINK_WriteReg(R3, 0x00000000)  returns 0x00 (0000ms, 0659ms total)
T4BAC 000:921 JLINK_WriteReg(R4, 0x00000000)  returns 0x00 (0000ms, 0659ms total)
T4BAC 000:921 JLINK_WriteReg(R5, 0x00000000)  returns 0x00 (0000ms, 0659ms total)
T4BAC 000:921 JLINK_WriteReg(R6, 0x00000000)  returns 0x00 (0000ms, 0659ms total)
T4BAC 000:921 JLINK_WriteReg(R7, 0x00000000)  returns 0x00 (0000ms, 0659ms total)
T4BAC 000:921 JLINK_WriteReg(R8, 0x00000000)  returns 0x00 (0000ms, 0659ms total)
T4BAC 000:922 JLINK_WriteReg(R9, 0x2000024C)  returns 0x00 (0000ms, 0659ms total)
T4BAC 000:922 JLINK_WriteReg(R10, 0x00000000)  returns 0x00 (0000ms, 0659ms total)
T4BAC 000:922 JLINK_WriteReg(R11, 0x00000000)  returns 0x00 (0000ms, 0659ms total)
T4BAC 000:922 JLINK_WriteReg(R12, 0x00000000)  returns 0x00 (0000ms, 0659ms total)
T4BAC 000:922 JLINK_WriteReg(R13 (SP), 0x20001000)  returns 0x00 (0000ms, 0659ms total)
T4BAC 000:922 JLINK_WriteReg(R14, 0x20000001)  returns 0x00 (0000ms, 0659ms total)
T4BAC 000:922 JLINK_WriteReg(R15 (PC), 0x20000020)  returns 0x00 (0000ms, 0659ms total)
T4BAC 000:922 JLINK_WriteReg(XPSR, 0x01000000)  returns 0x00 (0000ms, 0659ms total)
T4BAC 000:922 JLINK_WriteReg(MSP, 0x20001000)  returns 0x00 (0000ms, 0659ms total)
T4BAC 000:922 JLINK_WriteReg(PSP, 0x20001000)  returns 0x00 (0000ms, 0659ms total)
T4BAC 000:922 JLINK_WriteReg(CFBP, 0x00000000)  returns 0x00 (0000ms, 0659ms total)
T4BAC 000:922 JLINK_SetBPEx(Addr = 0x20000000, Type = 0xFFFFFFF2)  returns 0x0000000E (0000ms, 0659ms total)
T4BAC 000:922 JLINK_Go() (0002ms, 0661ms total)
T4BAC 000:924 JLINK_IsHalted() -- CPU_ReadMem(2 bytes @ 0x20000000)  returns TRUE (0003ms, 0664ms total)
T4BAC 000:928 JLINK_ReadReg(R15 (PC))  returns 0x20000000 (0000ms, 0661ms total)
T4BAC 000:928 JLINK_ClrBPEx(BPHandle = 0x0000000E)  returns 0x00 (0000ms, 0661ms total)
T4BAC 000:928 JLINK_ReadReg(R0)  returns 0x00000001 (0000ms, 0661ms total)
T4BAC 000:928 JLINK_WriteReg(R0, 0x00002C00)  returns 0x00 (0000ms, 0661ms total)
T4BAC 000:928 JLINK_WriteReg(R1, 0x00000200)  returns 0x00 (0000ms, 0661ms total)
T4BAC 000:928 JLINK_WriteReg(R2, 0x000000FF)  returns 0x00 (0000ms, 0661ms total)
T4BAC 000:928 JLINK_WriteReg(R3, 0x00000000)  returns 0x00 (0000ms, 0661ms total)
T4BAC 000:928 JLINK_WriteReg(R4, 0x00000000)  returns 0x00 (0000ms, 0661ms total)
T4BAC 000:928 JLINK_WriteReg(R5, 0x00000000)  returns 0x00 (0000ms, 0661ms total)
T4BAC 000:928 JLINK_WriteReg(R6, 0x00000000)  returns 0x00 (0000ms, 0661ms total)
T4BAC 000:928 JLINK_WriteReg(R7, 0x00000000)  returns 0x00 (0000ms, 0661ms total)
T4BAC 000:928 JLINK_WriteReg(R8, 0x00000000)  returns 0x00 (0000ms, 0661ms total)
T4BAC 000:928 JLINK_WriteReg(R9, 0x2000024C)  returns 0x00 (0000ms, 0661ms total)
T4BAC 000:928 JLINK_WriteReg(R10, 0x00000000)  returns 0x00 (0000ms, 0661ms total)
T4BAC 000:928 JLINK_WriteReg(R11, 0x00000000)  returns 0x00 (0000ms, 0661ms total)
T4BAC 000:928 JLINK_WriteReg(R12, 0x00000000)  returns 0x00 (0000ms, 0661ms total)
T4BAC 000:928 JLINK_WriteReg(R13 (SP), 0x20001000)  returns 0x00 (0000ms, 0661ms total)
T4BAC 000:928 JLINK_WriteReg(R14, 0x20000001)  returns 0x00 (0000ms, 0661ms total)
T4BAC 000:928 JLINK_WriteReg(R15 (PC), 0x20000074)  returns 0x00 (0000ms, 0661ms total)
T4BAC 000:928 JLINK_WriteReg(XPSR, 0x01000000)  returns 0x00 (0000ms, 0661ms total)
T4BAC 000:928 JLINK_WriteReg(MSP, 0x20001000)  returns 0x00 (0000ms, 0661ms total)
T4BAC 000:928 JLINK_WriteReg(PSP, 0x20001000)  returns 0x00 (0000ms, 0661ms total)
T4BAC 000:928 JLINK_WriteReg(CFBP, 0x00000000)  returns 0x00 (0000ms, 0661ms total)
T4BAC 000:928 JLINK_SetBPEx(Addr = 0x20000000, Type = 0xFFFFFFF2)  returns 0x0000000F (0000ms, 0661ms total)
T4BAC 000:928 JLINK_Go() (0001ms, 0662ms total)
T4BAC 000:929 JLINK_IsHalted()  returns FALSE (0001ms, 0663ms total)
T4BAC 000:935 JLINK_IsHalted() -- CPU_ReadMem(2 bytes @ 0x20000000)  returns TRUE (0003ms, 0665ms total)
T4BAC 000:938 JLINK_ReadReg(R15 (PC))  returns 0x20000000 (0000ms, 0662ms total)
T4BAC 000:938 JLINK_ClrBPEx(BPHandle = 0x0000000F)  returns 0x00 (0000ms, 0662ms total)
T4BAC 000:938 JLINK_ReadReg(R0)  returns 0x00000000 (0000ms, 0662ms total)
T4BAC 000:939 JLINK_WriteReg(R0, 0x00002E00)  returns 0x00 (0000ms, 0662ms total)
T4BAC 000:939 JLINK_WriteReg(R1, 0x00000200)  returns 0x00 (0000ms, 0662ms total)
T4BAC 000:939 JLINK_WriteReg(R2, 0x000000FF)  returns 0x00 (0000ms, 0662ms total)
T4BAC 000:939 JLINK_WriteReg(R3, 0x00000000)  returns 0x00 (0000ms, 0662ms total)
T4BAC 000:939 JLINK_WriteReg(R4, 0x00000000)  returns 0x00 (0000ms, 0662ms total)
T4BAC 000:939 JLINK_WriteReg(R5, 0x00000000)  returns 0x00 (0000ms, 0662ms total)
T4BAC 000:939 JLINK_WriteReg(R6, 0x00000000)  returns 0x00 (0000ms, 0662ms total)
T4BAC 000:939 JLINK_WriteReg(R7, 0x00000000)  returns 0x00 (0000ms, 0662ms total)
T4BAC 000:939 JLINK_WriteReg(R8, 0x00000000)  returns 0x00 (0000ms, 0662ms total)
T4BAC 000:939 JLINK_WriteReg(R9, 0x2000024C)  returns 0x00 (0000ms, 0662ms total)
T4BAC 000:939 JLINK_WriteReg(R10, 0x00000000)  returns 0x00 (0000ms, 0662ms total)
T4BAC 000:939 JLINK_WriteReg(R11, 0x00000000)  returns 0x00 (0000ms, 0662ms total)
T4BAC 000:939 JLINK_WriteReg(R12, 0x00000000)  returns 0x00 (0000ms, 0662ms total)
T4BAC 000:939 JLINK_WriteReg(R13 (SP), 0x20001000)  returns 0x00 (0000ms, 0662ms total)
T4BAC 000:939 JLINK_WriteReg(R14, 0x20000001)  returns 0x00 (0000ms, 0662ms total)
T4BAC 000:939 JLINK_WriteReg(R15 (PC), 0x20000020)  returns 0x00 (0000ms, 0662ms total)
T4BAC 000:939 JLINK_WriteReg(XPSR, 0x01000000)  returns 0x00 (0000ms, 0662ms total)
T4BAC 000:939 JLINK_WriteReg(MSP, 0x20001000)  returns 0x00 (0000ms, 0662ms total)
T4BAC 000:939 JLINK_WriteReg(PSP, 0x20001000)  returns 0x00 (0000ms, 0662ms total)
T4BAC 000:939 JLINK_WriteReg(CFBP, 0x00000000)  returns 0x00 (0000ms, 0662ms total)
T4BAC 000:939 JLINK_SetBPEx(Addr = 0x20000000, Type = 0xFFFFFFF2)  returns 0x00000010 (0000ms, 0662ms total)
T4BAC 000:939 JLINK_Go() (0003ms, 0665ms total)
T4BAC 000:942 JLINK_IsHalted() -- CPU_ReadMem(2 bytes @ 0x20000000)  returns TRUE (0004ms, 0669ms total)
T4BAC 000:946 JLINK_ReadReg(R15 (PC))  returns 0x20000000 (0000ms, 0665ms total)
T4BAC 000:946 JLINK_ClrBPEx(BPHandle = 0x00000010)  returns 0x00 (0000ms, 0665ms total)
T4BAC 000:946 JLINK_ReadReg(R0)  returns 0x00000001 (0000ms, 0665ms total)
T4BAC 000:946 JLINK_WriteReg(R0, 0x00002E00)  returns 0x00 (0000ms, 0665ms total)
T4BAC 000:946 JLINK_WriteReg(R1, 0x00000200)  returns 0x00 (0000ms, 0665ms total)
T4BAC 000:946 JLINK_WriteReg(R2, 0x000000FF)  returns 0x00 (0000ms, 0665ms total)
T4BAC 000:946 JLINK_WriteReg(R3, 0x00000000)  returns 0x00 (0000ms, 0665ms total)
T4BAC 000:946 JLINK_WriteReg(R4, 0x00000000)  returns 0x00 (0000ms, 0665ms total)
T4BAC 000:946 JLINK_WriteReg(R5, 0x00000000)  returns 0x00 (0000ms, 0665ms total)
T4BAC 000:946 JLINK_WriteReg(R6, 0x00000000)  returns 0x00 (0000ms, 0665ms total)
T4BAC 000:946 JLINK_WriteReg(R7, 0x00000000)  returns 0x00 (0000ms, 0665ms total)
T4BAC 000:946 JLINK_WriteReg(R8, 0x00000000)  returns 0x00 (0000ms, 0665ms total)
T4BAC 000:946 JLINK_WriteReg(R9, 0x2000024C)  returns 0x00 (0000ms, 0665ms total)
T4BAC 000:946 JLINK_WriteReg(R10, 0x00000000)  returns 0x00 (0000ms, 0665ms total)
T4BAC 000:946 JLINK_WriteReg(R11, 0x00000000)  returns 0x00 (0000ms, 0665ms total)
T4BAC 000:946 JLINK_WriteReg(R12, 0x00000000)  returns 0x00 (0000ms, 0665ms total)
T4BAC 000:946 JLINK_WriteReg(R13 (SP), 0x20001000)  returns 0x00 (0000ms, 0665ms total)
T4BAC 000:946 JLINK_WriteReg(R14, 0x20000001)  returns 0x00 (0000ms, 0665ms total)
T4BAC 000:946 JLINK_WriteReg(R15 (PC), 0x20000074)  returns 0x00 (0000ms, 0665ms total)
T4BAC 000:946 JLINK_WriteReg(XPSR, 0x01000000)  returns 0x00 (0000ms, 0665ms total)
T4BAC 000:946 JLINK_WriteReg(MSP, 0x20001000)  returns 0x00 (0000ms, 0665ms total)
T4BAC 000:946 JLINK_WriteReg(PSP, 0x20001000)  returns 0x00 (0000ms, 0665ms total)
T4BAC 000:946 JLINK_WriteReg(CFBP, 0x00000000)  returns 0x00 (0000ms, 0665ms total)
T4BAC 000:946 JLINK_SetBPEx(Addr = 0x20000000, Type = 0xFFFFFFF2)  returns 0x00000011 (0000ms, 0665ms total)
T4BAC 000:946 JLINK_Go() (0002ms, 0667ms total)
T4BAC 000:948 JLINK_IsHalted()  returns FALSE (0000ms, 0667ms total)
T4BAC 000:951 JLINK_IsHalted()  returns FALSE (0000ms, 0667ms total)
T4BAC 000:954 JLINK_IsHalted() -- CPU_ReadMem(2 bytes @ 0x20000000)  returns TRUE (0003ms, 0670ms total)
T4BAC 000:957 JLINK_ReadReg(R15 (PC))  returns 0x20000000 (0000ms, 0667ms total)
T4BAC 000:957 JLINK_ClrBPEx(BPHandle = 0x00000011)  returns 0x00 (0000ms, 0667ms total)
T4BAC 000:957 JLINK_ReadReg(R0)  returns 0x00000000 (0000ms, 0667ms total)
T4BAC 000:958 JLINK_WriteReg(R0, 0x00003000)  returns 0x00 (0000ms, 0667ms total)
T4BAC 000:958 JLINK_WriteReg(R1, 0x00000200)  returns 0x00 (0000ms, 0667ms total)
T4BAC 000:958 JLINK_WriteReg(R2, 0x000000FF)  returns 0x00 (0000ms, 0667ms total)
T4BAC 000:958 JLINK_WriteReg(R3, 0x00000000)  returns 0x00 (0000ms, 0667ms total)
T4BAC 000:958 JLINK_WriteReg(R4, 0x00000000)  returns 0x00 (0000ms, 0667ms total)
T4BAC 000:958 JLINK_WriteReg(R5, 0x00000000)  returns 0x00 (0000ms, 0667ms total)
T4BAC 000:958 JLINK_WriteReg(R6, 0x00000000)  returns 0x00 (0000ms, 0667ms total)
T4BAC 000:958 JLINK_WriteReg(R7, 0x00000000)  returns 0x00 (0000ms, 0667ms total)
T4BAC 000:958 JLINK_WriteReg(R8, 0x00000000)  returns 0x00 (0000ms, 0667ms total)
T4BAC 000:958 JLINK_WriteReg(R9, 0x2000024C)  returns 0x00 (0000ms, 0667ms total)
T4BAC 000:958 JLINK_WriteReg(R10, 0x00000000)  returns 0x00 (0000ms, 0667ms total)
T4BAC 000:958 JLINK_WriteReg(R11, 0x00000000)  returns 0x00 (0000ms, 0667ms total)
T4BAC 000:958 JLINK_WriteReg(R12, 0x00000000)  returns 0x00 (0000ms, 0667ms total)
T4BAC 000:958 JLINK_WriteReg(R13 (SP), 0x20001000)  returns 0x00 (0000ms, 0667ms total)
T4BAC 000:958 JLINK_WriteReg(R14, 0x20000001)  returns 0x00 (0000ms, 0667ms total)
T4BAC 000:958 JLINK_WriteReg(R15 (PC), 0x20000020)  returns 0x00 (0000ms, 0667ms total)
T4BAC 000:958 JLINK_WriteReg(XPSR, 0x01000000)  returns 0x00 (0000ms, 0667ms total)
T4BAC 000:958 JLINK_WriteReg(MSP, 0x20001000)  returns 0x00 (0000ms, 0667ms total)
T4BAC 000:958 JLINK_WriteReg(PSP, 0x20001000)  returns 0x00 (0000ms, 0667ms total)
T4BAC 000:958 JLINK_WriteReg(CFBP, 0x00000000)  returns 0x00 (0000ms, 0667ms total)
T4BAC 000:958 JLINK_SetBPEx(Addr = 0x20000000, Type = 0xFFFFFFF2)  returns 0x00000012 (0000ms, 0667ms total)
T4BAC 000:958 JLINK_Go() (0002ms, 0669ms total)
T4BAC 000:960 JLINK_IsHalted() -- CPU_ReadMem(2 bytes @ 0x20000000)  returns TRUE (0004ms, 0673ms total)
T4BAC 000:964 JLINK_ReadReg(R15 (PC))  returns 0x20000000 (0000ms, 0669ms total)
T4BAC 000:964 JLINK_ClrBPEx(BPHandle = 0x00000012)  returns 0x00 (0000ms, 0669ms total)
T4BAC 000:964 JLINK_ReadReg(R0)  returns 0x00000001 (0000ms, 0669ms total)
T4BAC 000:964 JLINK_WriteReg(R0, 0x00003000)  returns 0x00 (0000ms, 0669ms total)
T4BAC 000:964 JLINK_WriteReg(R1, 0x00000200)  returns 0x00 (0000ms, 0669ms total)
T4BAC 000:964 JLINK_WriteReg(R2, 0x000000FF)  returns 0x00 (0000ms, 0669ms total)
T4BAC 000:964 JLINK_WriteReg(R3, 0x00000000)  returns 0x00 (0000ms, 0669ms total)
T4BAC 000:964 JLINK_WriteReg(R4, 0x00000000)  returns 0x00 (0000ms, 0669ms total)
T4BAC 000:964 JLINK_WriteReg(R5, 0x00000000)  returns 0x00 (0000ms, 0669ms total)
T4BAC 000:964 JLINK_WriteReg(R6, 0x00000000)  returns 0x00 (0000ms, 0669ms total)
T4BAC 000:964 JLINK_WriteReg(R7, 0x00000000)  returns 0x00 (0000ms, 0669ms total)
T4BAC 000:964 JLINK_WriteReg(R8, 0x00000000)  returns 0x00 (0000ms, 0669ms total)
T4BAC 000:964 JLINK_WriteReg(R9, 0x2000024C)  returns 0x00 (0000ms, 0669ms total)
T4BAC 000:964 JLINK_WriteReg(R10, 0x00000000)  returns 0x00 (0000ms, 0669ms total)
T4BAC 000:964 JLINK_WriteReg(R11, 0x00000000)  returns 0x00 (0000ms, 0669ms total)
T4BAC 000:964 JLINK_WriteReg(R12, 0x00000000)  returns 0x00 (0000ms, 0669ms total)
T4BAC 000:964 JLINK_WriteReg(R13 (SP), 0x20001000)  returns 0x00 (0000ms, 0669ms total)
T4BAC 000:964 JLINK_WriteReg(R14, 0x20000001)  returns 0x00 (0000ms, 0669ms total)
T4BAC 000:964 JLINK_WriteReg(R15 (PC), 0x20000074)  returns 0x00 (0000ms, 0669ms total)
T4BAC 000:964 JLINK_WriteReg(XPSR, 0x01000000)  returns 0x00 (0000ms, 0669ms total)
T4BAC 000:964 JLINK_WriteReg(MSP, 0x20001000)  returns 0x00 (0000ms, 0669ms total)
T4BAC 000:964 JLINK_WriteReg(PSP, 0x20001000)  returns 0x00 (0000ms, 0669ms total)
T4BAC 000:964 JLINK_WriteReg(CFBP, 0x00000000)  returns 0x00 (0000ms, 0669ms total)
T4BAC 000:964 JLINK_SetBPEx(Addr = 0x20000000, Type = 0xFFFFFFF2)  returns 0x00000013 (0000ms, 0669ms total)
T4BAC 000:964 JLINK_Go() (0003ms, 0672ms total)
T4BAC 000:967 JLINK_IsHalted()  returns FALSE (0000ms, 0672ms total)
T4BAC 000:971 JLINK_IsHalted()  returns FALSE (0000ms, 0672ms total)
T4BAC 000:973 JLINK_IsHalted() -- CPU_ReadMem(2 bytes @ 0x20000000)  returns TRUE (0004ms, 0676ms total)
T4BAC 000:977 JLINK_ReadReg(R15 (PC))  returns 0x20000000 (0000ms, 0672ms total)
T4BAC 000:977 JLINK_ClrBPEx(BPHandle = 0x00000013)  returns 0x00 (0000ms, 0672ms total)
T4BAC 000:977 JLINK_ReadReg(R0)  returns 0x00000000 (0000ms, 0672ms total)
T4BAC 000:978 JLINK_WriteReg(R0, 0x00003200)  returns 0x00 (0000ms, 0672ms total)
T4BAC 000:978 JLINK_WriteReg(R1, 0x00000200)  returns 0x00 (0000ms, 0672ms total)
T4BAC 000:978 JLINK_WriteReg(R2, 0x000000FF)  returns 0x00 (0000ms, 0672ms total)
T4BAC 000:978 JLINK_WriteReg(R3, 0x00000000)  returns 0x00 (0000ms, 0672ms total)
T4BAC 000:978 JLINK_WriteReg(R4, 0x00000000)  returns 0x00 (0000ms, 0672ms total)
T4BAC 000:978 JLINK_WriteReg(R5, 0x00000000)  returns 0x00 (0000ms, 0672ms total)
T4BAC 000:978 JLINK_WriteReg(R6, 0x00000000)  returns 0x00 (0000ms, 0672ms total)
T4BAC 000:978 JLINK_WriteReg(R7, 0x00000000)  returns 0x00 (0000ms, 0672ms total)
T4BAC 000:978 JLINK_WriteReg(R8, 0x00000000)  returns 0x00 (0000ms, 0672ms total)
T4BAC 000:978 JLINK_WriteReg(R9, 0x2000024C)  returns 0x00 (0000ms, 0672ms total)
T4BAC 000:978 JLINK_WriteReg(R10, 0x00000000)  returns 0x00 (0000ms, 0672ms total)
